T4670 67558:121 SEGGER J-Link V6.44a Log File (0000ms, 681745ms total)
T4670 67558:121 DLL Compiled: Mar  8 2019 17:31:48 (0000ms, 681745ms total)
T4670 67558:121 Logging started @ 2019-11-01 09:33 (0000ms, 681745ms total)
T4670 67558:121 JLINK_SetWarnOutHandler(...) (0000ms, 681745ms total)
T4670 67558:121 JLINK_OpenEx(...)
Firmware: J-Link OB-SAM3U128 V3 compiled Aug 22 2019 17:29:22
Hardware: V3.00
S/N: 483060839
TELNET listener socket opened on port 19021Device "CORTEX-M4" selected.WEBSRV 
Starting webserver (0036ms, 681781ms total)
T4670 67558:121 WEBSRV Webserver running on local port 19081 (0036ms, 681781ms total)
T4670 67558:121   returns O.K. (0036ms, 681781ms total)
T4670 67558:157 JLINK_GetEmuCaps()  returns 0xB9FE5BBF (0000ms, 681781ms total)
T4670 67558:157 JLINK_TIF_GetAvailable(...) (0001ms, 681782ms total)
T4670 67558:158 JLINK_SetErrorOutHandler(...) (0000ms, 681782ms total)
T4670 67558:158 JLINK_ExecCommand("ProjectFile = "E:\workplace\amazon\201906.00_Major-idt\projects\goodix\GR5515-SK\keil_v5\aws_tests\JLinkSettings.ini"", ...). Device "CORTEX-M4" selected.  returns 0x00 (0018ms, 681800ms total)
T4670 67558:183 JLINK_ExecCommand("Device = ARMCM4_FP", ...). Device "CORTEX-M4" selected.  returns 0x00 (0008ms, 681808ms total)
T4670 67558:191 JLINK_ExecCommand("DisableConnectionTimeout", ...).   returns 0x01 (0000ms, 681808ms total)
T4670 67558:191 JLINK_GetHardwareVersion()  returns 0x7530 (0000ms, 681808ms total)
T4670 67558:191 JLINK_GetDLLVersion()  returns 64401 (0000ms, 681808ms total)
T4670 67558:191 JLINK_GetFirmwareString(...) (0000ms, 681808ms total)
T4670 67558:209 JLINK_GetDLLVersion()  returns 64401 (0000ms, 681808ms total)
T4670 67558:209 JLINK_GetCompileDateTime() (0000ms, 681808ms total)
T4670 67558:215 JLINK_GetFirmwareString(...) (0000ms, 681808ms total)
T4670 67558:221 JLINK_GetHardwareVersion()  returns 0x7530 (0000ms, 681808ms total)
T4670 67558:239 JLINK_TIF_Select(JLINKARM_TIF_SWD)  returns 0x00 (0000ms, 681808ms total)
T4670 67558:239 JLINK_SetSpeed(1000) (0001ms, 681809ms total)
T4670 67558:240 JLINK_GetId() >0x10B TIF>Found SW-DP with ID 0x2BA01477 >0x0D TIF> >0x28 TIF> >0x0D TIF> >0x28 TIF> >0x0D TIF> >0x28 TIF> >0x0D TIF> >0x28 TIF> >0x0D TIF> >0x21 TIF> >0x0D TIF> >0x28 TIF>Scanning AP map to find all available APs >0x0D TIF> >0x28 TIF> >0x0D TIF> >0x21 TIF> >0x0D TIF> >0x21 TIF> >0x0D TIF> >0x28 TIF> >0x0D TIF> >0x21 TIF> >0x0D TIF> >0x21 TIF>AP[1]: Stopped AP scan as end of AP map has been reachedAP[0]: AHB-AP (IDR: 0x24770011)Iterating through AP map to find AHB-AP to use
 >0x42 TIF> >0x28 TIF> >0x0D TIF> >0x28 TIF> >0x0D TIF> >0x21 TIF> >0x0D TIF> >0x21 TIF> >0x42 TIF> >0x28 TIF> >0x0D TIF> >0x28 TIF> >0x0D TIF> >0x28 TIF> >0x0D TIF> >0x21 TIF> >0x0D TIF> >0x21 TIF>AP[0]: Core foundAP[0]: AHB-AP ROM base: 0xE00FF000 >0x0D TIF> >0x28 TIF> >0x0D TIF> >0x28 TIF> >0x0D TIF> >0x28 TIF> >0x0D TIF> >0x21 TIF> >0x0D TIF> >0x21 TIF>CPUID register: 0x410FC241. Implementer code: 0x41 (ARM)Found Cortex-M4 r0p1, Little endian. -- Max. mem block: 0x00005188
 -- CPU_ReadMem(4 bytes @ 0xE000EDF0) -- CPU_WriteMem(4 bytes @ 0xE000EDF0) -- CPU_ReadMem(4 bytes @ 0xE0002000)FPUnit: 6 code (BP) slots and 2 literal slots -- CPU_ReadMem(4 bytes @ 0xE000EDFC) -- CPU_WriteMem(4 bytes @ 0xE000EDFC) -- CPU_ReadMem(4 bytes @ 0xE0001000) -- CPU_WriteMem(4 bytes @ 0xE0001000) -- CPU_ReadMem(4 bytes @ 0xE000ED88) -- CPU_WriteMem(4 bytes @ 0xE000ED88) -- CPU_ReadMem(4 bytes @ 0xE000ED88) -- CPU_WriteMem(4 bytes @ 0xE000ED88)CoreSight components:ROMTbl[0] @ E00FF000
 -- CPU_ReadMem(16 bytes @ 0xE00FF000) -- CPU_ReadMem(16 bytes @ 0xE000EFF0) -- CPU_ReadMem(16 bytes @ 0xE000EFE0)ROMTbl[0][0]: E000E000, CID: B105E00D, PID: 000BB00C SCS-M7 -- CPU_ReadMem(16 bytes @ 0xE0001FF0) -- CPU_ReadMem(16 bytes @ 0xE0001FE0)ROMTbl[0][1]: E0001000, CID: B105E00D, PID: 003BB002 DWT -- CPU_ReadMem(16 bytes @ 0xE0002FF0) -- CPU_ReadMem(16 bytes @ 0xE0002FE0)ROMTbl[0][2]: E0002000, CID: B105E00D, PID: 002BB003 FPB -- CPU_ReadMem(16 bytes @ 0xE0000FF0)
 -- CPU_ReadMem(16 bytes @ 0xE0000FE0)ROMTbl[0][3]: E0000000, CID: B105E00D, PID: 003BB001 ITM -- CPU_ReadMem(16 bytes @ 0xE00FF010) -- CPU_ReadMem(16 bytes @ 0xE0040FF0) -- CPU_ReadMem(16 bytes @ 0xE0040FE0)ROMTbl[0][4]: E0040000, CID: B105900D, PID: 000BB9A1 TPIU >0x0D TIF> >0x21 TIF>  returns 0x2BA01477 (0312ms, 682121ms total)
T4670 67558:552 JLINK_GetDLLVersion()  returns 64401 (0000ms, 682121ms total)
T4670 67558:552 JLINK_CORE_GetFound()  returns 0xE0000FF (0000ms, 682121ms total)
T4670 67558:552 JLINK_GetDebugInfo(0x100 = JLINKARM_ROM_TABLE_ADDR_INDEX) -- Value=0xE00FF000  returns 0x00 (0000ms, 682121ms total)
T4670 67558:562 JLINK_GetDebugInfo(0x100 = JLINKARM_ROM_TABLE_ADDR_INDEX) -- Value=0xE00FF000  returns 0x00 (0000ms, 682121ms total)
T4670 67558:562 JLINK_GetDebugInfo(0x101 = JLINKARM_DEBUG_INFO_ETM_ADDR_INDEX) -- Value=0x00000000  returns 0x00 (0000ms, 682121ms total)
T4670 67558:562 JLINK_ReadMemEx(0xE0041FF0, 0x0010 Bytes, ..., Flags = 0x02000004) -- CPU_ReadMem(16 bytes @ 0xE0041FF0) - Data: 00 00 00 00 00 00 00 00 00 00 00 00 00 00 00 00  returns 0x10 (0001ms, 682122ms total)
T4670 67558:563 JLINK_GetDebugInfo(0x102 = JLINKARM_DEBUG_INFO_MTB_ADDR_INDEX) -- Value=0x00000000  returns 0x00 (0000ms, 682122ms total)
T4670 67558:563 JLINK_GetDebugInfo(0x103 = JLINKARM_DEBUG_INFO_TPIU_ADDR_INDEX) -- Value=0xE0040000  returns 0x00 (0000ms, 682122ms total)
T4670 67558:563 JLINK_GetDebugInfo(0x104 = JLINKARM_DEBUG_INFO_ITM_ADDR_INDEX) -- Value=0xE0000000  returns 0x00 (0000ms, 682122ms total)
T4670 67558:563 JLINK_GetDebugInfo(0x105 = JLINKARM_DEBUG_INFO_DWT_ADDR_INDEX) -- Value=0xE0001000  returns 0x00 (0000ms, 682122ms total)
T4670 67558:563 JLINK_GetDebugInfo(0x106 = JLINKARM_DEBUG_INFO_FPB_ADDR_INDEX) -- Value=0xE0002000  returns 0x00 (0000ms, 682122ms total)
T4670 67558:563 JLINK_GetDebugInfo(0x107 = JLINKARM_DEBUG_INFO_NVIC_ADDR_INDEX) -- Value=0xE000E000  returns 0x00 (0000ms, 682122ms total)
T4670 67558:563 JLINK_GetDebugInfo(0x10C = JLINKARM_DEBUG_INFO_DBG_ADDR_INDEX) -- Value=0xE000EDF0  returns 0x00 (0000ms, 682122ms total)
T4670 67558:563 JLINK_GetDebugInfo(0x01 = Unknown) -- Value=0x00000001  returns 0x00 (0000ms, 682122ms total)
T4670 67558:563 JLINK_ReadMemU32(0xE000ED00, 0x0001 Items, ...) -- CPU_ReadMem(4 bytes @ 0xE000ED00) - Data: 41 C2 0F 41  returns 1 (0001ms, 682123ms total)
T4670 67558:564 JLINK_GetDebugInfo(0x10F = JLINKARM_DEBUG_INFO_HAS_CORTEX_M_SECURITY_EXT_INDEX) -- Value=0x00000000  returns 0x00 (0000ms, 682123ms total)
T4670 67558:564 JLINK_SetResetType(JLINKARM_CM3_RESET_TYPE_NORMAL)  returns JLINKARM_CM3_RESET_TYPE_NORMAL (0000ms, 682123ms total)
T4670 67558:564 JLINK_Reset() -- CPU is running -- CPU_WriteMem(4 bytes @ 0xE000EDF0) -- CPU is running -- CPU_WriteMem(4 bytes @ 0xE000EDFC)Reset: Halt core after reset via DEMCR.VC_CORERESET. >0x35 TIF>Reset: Reset device via AIRCR.SYSRESETREQ. -- CPU is running -- CPU_WriteMem(4 bytes @ 0xE000ED0C) >0x0D TIF> >0x28 TIF> -- CPU_ReadMem(4 bytes @ 0xE000EDF0) -- CPU_ReadMem(4 bytes @ 0xE000EDF0) -- CPU is running -- CPU_WriteMem(4 bytes @ 0xE000EDF0) -- CPU is running
 -- CPU_WriteMem(4 bytes @ 0xE000EDFC) -- CPU_ReadMem(4 bytes @ 0xE000EDF0) -- CPU_WriteMem(4 bytes @ 0xE0002000) -- CPU_ReadMem(4 bytes @ 0xE000EDFC) -- CPU_ReadMem(4 bytes @ 0xE0001000) (0087ms, 682210ms total)
T4670 67558:651 JLINK_Halt()  returns 0x00 (0000ms, 682210ms total)
T4670 67558:651 JLINK_ReadMemU32(0xE000EDF0, 0x0001 Items, ...) -- CPU_ReadMem(4 bytes @ 0xE000EDF0) - Data: 03 00 03 00  returns 1 (0001ms, 682211ms total)
T4670 67558:652 JLINK_WriteU32(0xE000EDF0, 0xA05F0003) -- CPU_WriteMem(4 bytes @ 0xE000EDF0)  returns 0 (0001ms, 682212ms total)
T4670 67558:653 JLINK_WriteU32(0xE000EDFC, 0x01000000) -- CPU_WriteMem(4 bytes @ 0xE000EDFC)  returns 0 (0001ms, 682213ms total)
T4670 67558:711 JLINK_GetHWStatus(...)  returns 0x00 (0000ms, 682213ms total)
T4670 67558:728 JLINK_GetNumBPUnits(Type = 0xFFFFFF00)  returns 0x06 (0000ms, 682213ms total)
T4670 67558:728 JLINK_GetNumBPUnits(Type = 0xF0)  returns 0x2000 (0000ms, 682213ms total)
T4670 67558:728 JLINK_GetNumWPUnits()  returns 0x04 (0001ms, 682214ms total)
T4670 67558:747 JLINK_GetSpeed()  returns 0x3E8 (0000ms, 682214ms total)
T4670 67558:758 JLINK_ReadMemU32(0xE000E004, 0x0001 Items, ...) -- CPU_ReadMem(4 bytes @ 0xE000E004) - Data: 01 00 00 00  returns 1 (0001ms, 682215ms total)
T4670 67558:759 JLINK_ReadMemU32(0xE000E004, 0x0001 Items, ...) -- CPU_ReadMem(4 bytes @ 0xE000E004) - Data: 01 00 00 00  returns 1 (0000ms, 682215ms total)
T4670 67558:759 JLINK_WriteMemEx(0xE0001000, 0x001C Bytes, ..., Flags = 0x02000004) - Data: 01 00 00 00 00 00 00 00 00 00 00 00 00 00 00 00 ... -- CPU_WriteMem(28 bytes @ 0xE0001000)  returns 0x1C (0002ms, 682217ms total)
T4670 67558:797 JLINK_Halt()  returns 0x00 (0000ms, 682217ms total)
T4670 67558:797 JLINK_IsHalted()  returns TRUE (0000ms, 682217ms total)
T4670 67558:807 JLINK_WriteMem(0x30000000, 0x4238 Bytes, ...) - Data: 00 BE 0A E0 0D 78 2D 06 68 40 08 24 40 00 00 D3 ... -- CPU_WriteMem(16952 bytes @ 0x30000000)  returns 0x4238 (0217ms, 682434ms total)
T4670 67559:024 JLINK_WriteReg(R0, 0x01000000)  returns 0x00 (0000ms, 682434ms total)
T4670 67559:024 JLINK_WriteReg(R1, 0x00B71B00)  returns 0x00 (0000ms, 682434ms total)
T4670 67559:024 JLINK_WriteReg(R2, 0x00000001)  returns 0x00 (0000ms, 682434ms total)
T4670 67559:024 JLINK_WriteReg(R3, 0x00000000)  returns 0x00 (0000ms, 682434ms total)
T4670 67559:024 JLINK_WriteReg(R4, 0x00000000)  returns 0x00 (0000ms, 682434ms total)
T4670 67559:024 JLINK_WriteReg(R5, 0x00000000)  returns 0x00 (0001ms, 682435ms total)
T4670 67559:025 JLINK_WriteReg(R6, 0x00000000)  returns 0x00 (0000ms, 682435ms total)
T4670 67559:025 JLINK_WriteReg(R7, 0x00000000)  returns 0x00 (0000ms, 682435ms total)
T4670 67559:025 JLINK_WriteReg(R8, 0x00000000)  returns 0x00 (0000ms, 682435ms total)
T4670 67559:025 JLINK_WriteReg(R9, 0x30004200)  returns 0x00 (0000ms, 682435ms total)
T4670 67559:025 JLINK_WriteReg(R10, 0x00000000)  returns 0x00 (0000ms, 682435ms total)
T4670 67559:025 JLINK_WriteReg(R11, 0x00000000)  returns 0x00 (0000ms, 682435ms total)
T4670 67559:025 JLINK_WriteReg(R12, 0x00000000)  returns 0x00 (0000ms, 682435ms total)
T4670 67559:025 JLINK_WriteReg(R13 (SP), 0x3000F000)  returns 0x00 (0000ms, 682435ms total)
T4670 67559:025 JLINK_WriteReg(R14, 0x30000001)  returns 0x00 (0000ms, 682435ms total)
T4670 67559:025 JLINK_WriteReg(R15 (PC), 0x300001E4)  returns 0x00 (0000ms, 682435ms total)
T4670 67559:025 JLINK_WriteReg(XPSR, 0x01000000)  returns 0x00 (0001ms, 682436ms total)
T4670 67559:026 JLINK_WriteReg(MSP, 0x3000F000)  returns 0x00 (0000ms, 682436ms total)
T4670 67559:026 JLINK_WriteReg(PSP, 0x3000F000)  returns 0x00 (0000ms, 682436ms total)
T4670 67559:026 JLINK_WriteReg(CFBP, 0x00000000)  returns 0x00 (0000ms, 682436ms total)
T4670 67559:026 JLINK_SetBPEx(Addr = 0x30000000, Type = 0xFFFFFFF2) -- CPU_ReadMem(4 bytes @ 0x30000000) -- CPU_WriteMem(4 bytes @ 0x30000000) -- CPU_ReadMem(4 bytes @ 0x30000000) -- CPU_WriteMem(4 bytes @ 0x30000000) -- CPU_ReadMem(2 bytes @ 0x30000000)  returns 0x00000001 (0004ms, 682440ms total)
T4670 67559:030 JLINK_Go() -- CPU_WriteMem(2 bytes @ 0x30000000) -- CPU_ReadMem(4 bytes @ 0xE0001000) -- CPU_WriteMem(4 bytes @ 0xE0002008) -- CPU_WriteMem(4 bytes @ 0xE000200C) -- CPU_WriteMem(4 bytes @ 0xE0002010) -- CPU_WriteMem(4 bytes @ 0xE0002014) -- CPU_WriteMem(4 bytes @ 0xE0002018) -- CPU_WriteMem(4 bytes @ 0xE000201C) -- CPU_WriteMem(4 bytes @ 0xE0001004) (0013ms, 682453ms total)
T4670 67559:043 JLINK_IsHalted() -- CPU_ReadMem(2 bytes @ 0x30000000)  returns TRUE (0007ms, 682460ms total)
T4670 67559:051 JLINK_ReadReg(R15 (PC))  returns 0x30000000 (0000ms, 682453ms total)
T4670 67559:051 JLINK_ClrBPEx(BPHandle = 0x00000001)  returns 0x00 (0000ms, 682453ms total)
T4670 67559:051 JLINK_ReadReg(R0)  returns 0x00000000 (0000ms, 682453ms total)
T4670 67559:053 JLINK_WriteReg(R0, 0x01000000)  returns 0x00 (0000ms, 682453ms total)
T4670 67559:053 JLINK_WriteReg(R1, 0x00B71B00)  returns 0x00 (0000ms, 682453ms total)
T4670 67559:053 JLINK_WriteReg(R2, 0x00000001)  returns 0x00 (0000ms, 682453ms total)
T4670 67559:053 JLINK_WriteReg(R3, 0x00000000)  returns 0x00 (0000ms, 682453ms total)
T4670 67559:053 JLINK_WriteReg(R4, 0x00000000)  returns 0x00 (0000ms, 682453ms total)
T4670 67559:054 JLINK_WriteReg(R5, 0x00000000)  returns 0x00 (0000ms, 682454ms total)
T4670 67559:054 JLINK_WriteReg(R6, 0x00000000)  returns 0x00 (0000ms, 682454ms total)
T4670 67559:054 JLINK_WriteReg(R7, 0x00000000)  returns 0x00 (0000ms, 682454ms total)
T4670 67559:054 JLINK_WriteReg(R8, 0x00000000)  returns 0x00 (0000ms, 682454ms total)
T4670 67559:054 JLINK_WriteReg(R9, 0x30004200)  returns 0x00 (0000ms, 682454ms total)
T4670 67559:054 JLINK_WriteReg(R10, 0x00000000)  returns 0x00 (0000ms, 682454ms total)
T4670 67559:054 JLINK_WriteReg(R11, 0x00000000)  returns 0x00 (0000ms, 682454ms total)
T4670 67559:054 JLINK_WriteReg(R12, 0x00000000)  returns 0x00 (0000ms, 682454ms total)
T4670 67559:054 JLINK_WriteReg(R13 (SP), 0x3000F000)  returns 0x00 (0000ms, 682454ms total)
T4670 67559:054 JLINK_WriteReg(R14, 0x30000001)  returns 0x00 (0000ms, 682454ms total)
T4670 67559:054 JLINK_WriteReg(R15 (PC), 0x300002D2)  returns 0x00 (0000ms, 682454ms total)
T4670 67559:054 JLINK_WriteReg(XPSR, 0x01000000)  returns 0x00 (0000ms, 682454ms total)
T4670 67559:054 JLINK_WriteReg(MSP, 0x3000F000)  returns 0x00 (0001ms, 682455ms total)
T4670 67559:055 JLINK_WriteReg(PSP, 0x3000F000)  returns 0x00 (0000ms, 682455ms total)
T4670 67559:055 JLINK_WriteReg(CFBP, 0x00000000)  returns 0x00 (0000ms, 682455ms total)
T4670 67559:055 JLINK_SetBPEx(Addr = 0x30000000, Type = 0xFFFFFFF2)  returns 0x00000002 (0000ms, 682455ms total)
T4670 67559:055 JLINK_Go() -- CPU_ReadMem(4 bytes @ 0xE0001000) (0007ms, 682462ms total)
T4670 67559:062 JLINK_IsHalted()  returns FALSE (0001ms, 682463ms total)
T4670 67559:167 JLINK_IsHalted() -- CPU_ReadMem(2 bytes @ 0x30000000)  returns TRUE (0007ms, 682469ms total)
T4670 67559:174 JLINK_ReadReg(R15 (PC))  returns 0x30000000 (0000ms, 682462ms total)
T4670 67559:174 JLINK_ClrBPEx(BPHandle = 0x00000002)  returns 0x00 (0000ms, 682462ms total)
T4670 67559:174 JLINK_ReadReg(R0)  returns 0x00000000 (0000ms, 682462ms total)
T4670 67559:228 JLINK_WriteReg(R0, 0x00000001)  returns 0x00 (0000ms, 682462ms total)
T4670 67559:228 JLINK_WriteReg(R1, 0x00B71B00)  returns 0x00 (0000ms, 682462ms total)
T4670 67559:228 JLINK_WriteReg(R2, 0x00000001)  returns 0x00 (0000ms, 682462ms total)
T4670 67559:228 JLINK_WriteReg(R3, 0x00000000)  returns 0x00 (0000ms, 682462ms total)
T4670 67559:228 JLINK_WriteReg(R4, 0x00000000)  returns 0x00 (0000ms, 682462ms total)
T4670 67559:228 JLINK_WriteReg(R5, 0x00000000)  returns 0x00 (0000ms, 682462ms total)
T4670 67559:229 JLINK_WriteReg(R6, 0x00000000)  returns 0x00 (0000ms, 682463ms total)
T4670 67559:229 JLINK_WriteReg(R7, 0x00000000)  returns 0x00 (0000ms, 682463ms total)
T4670 67559:229 JLINK_WriteReg(R8, 0x00000000)  returns 0x00 (0000ms, 682463ms total)
T4670 67559:229 JLINK_WriteReg(R9, 0x30004200)  returns 0x00 (0000ms, 682463ms total)
T4670 67559:229 JLINK_WriteReg(R10, 0x00000000)  returns 0x00 (0000ms, 682463ms total)
T4670 67559:229 JLINK_WriteReg(R11, 0x00000000)  returns 0x00 (0000ms, 682463ms total)
T4670 67559:229 JLINK_WriteReg(R12, 0x00000000)  returns 0x00 (0000ms, 682463ms total)
T4670 67559:229 JLINK_WriteReg(R13 (SP), 0x3000F000)  returns 0x00 (0000ms, 682463ms total)
T4670 67559:229 JLINK_WriteReg(R14, 0x30000001)  returns 0x00 (0000ms, 682463ms total)
T4670 67559:229 JLINK_WriteReg(R15 (PC), 0x300002B8)  returns 0x00 (0000ms, 682463ms total)
T4670 67559:229 JLINK_WriteReg(XPSR, 0x01000000)  returns 0x00 (0000ms, 682463ms total)
T4670 67559:229 JLINK_WriteReg(MSP, 0x3000F000)  returns 0x00 (0001ms, 682464ms total)
T4670 67559:230 JLINK_WriteReg(PSP, 0x3000F000)  returns 0x00 (0000ms, 682464ms total)
T4670 67559:230 JLINK_WriteReg(CFBP, 0x00000000)  returns 0x00 (0000ms, 682464ms total)
T4670 67559:230 JLINK_SetBPEx(Addr = 0x30000000, Type = 0xFFFFFFF2)  returns 0x00000003 (0000ms, 682464ms total)
T4670 67559:230 JLINK_Go() -- CPU_ReadMem(4 bytes @ 0xE0001000) (0007ms, 682471ms total)
T4670 67559:237 JLINK_IsHalted() -- CPU_ReadMem(2 bytes @ 0x30000000)  returns TRUE (0008ms, 682479ms total)
T4670 67559:245 JLINK_ReadReg(R15 (PC))  returns 0x30000000 (0000ms, 682471ms total)
T4670 67559:246 JLINK_ClrBPEx(BPHandle = 0x00000003)  returns 0x00 (0000ms, 682471ms total)
T4670 67559:246 JLINK_ReadReg(R0)  returns 0x00000000 (0000ms, 682471ms total)
T4670 67559:299 JLINK_WriteMem(0x30000000, 0x4238 Bytes, ...) - Data: 00 BE 0A E0 0D 78 2D 06 68 40 08 24 40 00 00 D3 ... -- CPU_WriteMem(16952 bytes @ 0x30000000)  returns 0x4238 (0217ms, 682688ms total)
T4670 67559:516 JLINK_WriteReg(R0, 0x01000000)  returns 0x00 (0001ms, 682689ms total)
T4670 67559:517 JLINK_WriteReg(R1, 0x00B71B00)  returns 0x00 (0000ms, 682689ms total)
T4670 67559:517 JLINK_WriteReg(R2, 0x00000002)  returns 0x00 (0000ms, 682689ms total)
T4670 67559:517 JLINK_WriteReg(R3, 0x00000000)  returns 0x00 (0000ms, 682689ms total)
T4670 67559:517 JLINK_WriteReg(R4, 0x00000000)  returns 0x00 (0000ms, 682689ms total)
T4670 67559:517 JLINK_WriteReg(R5, 0x00000000)  returns 0x00 (0000ms, 682689ms total)
T4670 67559:517 JLINK_WriteReg(R6, 0x00000000)  returns 0x00 (0000ms, 682689ms total)
T4670 67559:517 JLINK_WriteReg(R7, 0x00000000)  returns 0x00 (0000ms, 682689ms total)
T4670 67559:517 JLINK_WriteReg(R8, 0x00000000)  returns 0x00 (0000ms, 682689ms total)
T4670 67559:517 JLINK_WriteReg(R9, 0x30004200)  returns 0x00 (0000ms, 682689ms total)
T4670 67559:517 JLINK_WriteReg(R10, 0x00000000)  returns 0x00 (0000ms, 682689ms total)
T4670 67559:517 JLINK_WriteReg(R11, 0x00000000)  returns 0x00 (0000ms, 682689ms total)
T4670 67559:517 JLINK_WriteReg(R12, 0x00000000)  returns 0x00 (0001ms, 682690ms total)
T4670 67559:518 JLINK_WriteReg(R13 (SP), 0x3000F000)  returns 0x00 (0000ms, 682690ms total)
T4670 67559:518 JLINK_WriteReg(R14, 0x30000001)  returns 0x00 (0000ms, 682690ms total)
T4670 67559:518 JLINK_WriteReg(R15 (PC), 0x300001E4)  returns 0x00 (0000ms, 682690ms total)
T4670 67559:518 JLINK_WriteReg(XPSR, 0x01000000)  returns 0x00 (0000ms, 682690ms total)
T4670 67559:518 JLINK_WriteReg(MSP, 0x3000F000)  returns 0x00 (0000ms, 682690ms total)
T4670 67559:518 JLINK_WriteReg(PSP, 0x3000F000)  returns 0x00 (0000ms, 682690ms total)
T4670 67559:518 JLINK_WriteReg(CFBP, 0x00000000)  returns 0x00 (0000ms, 682690ms total)
T4670 67559:518 JLINK_SetBPEx(Addr = 0x30000000, Type = 0xFFFFFFF2) -- CPU_ReadMem(4 bytes @ 0x30000000) -- CPU_WriteMem(4 bytes @ 0x30000000) -- CPU_ReadMem(4 bytes @ 0x30000000) -- CPU_WriteMem(4 bytes @ 0x30000000) -- CPU_ReadMem(2 bytes @ 0x30000000)  returns 0x00000004 (0005ms, 682695ms total)
T4670 67559:523 JLINK_Go() -- CPU_WriteMem(2 bytes @ 0x30000000) -- CPU_ReadMem(4 bytes @ 0xE0001000) (0008ms, 682703ms total)
T4670 67559:531 JLINK_IsHalted() -- CPU_ReadMem(2 bytes @ 0x30000000)  returns TRUE (0008ms, 682711ms total)
T4670 67559:539 JLINK_ReadReg(R15 (PC))  returns 0x30000000 (0000ms, 682703ms total)
T4670 67559:539 JLINK_ClrBPEx(BPHandle = 0x00000004)  returns 0x00 (0000ms, 682703ms total)
T4670 67559:539 JLINK_ReadReg(R0)  returns 0x00000000 (0000ms, 682703ms total)
T4670 67559:541 JLINK_WriteMem(0x30005814, 0x0100 Bytes, ...) - Data: 90 36 05 00 98 BB FD 01 00 20 00 01 00 20 00 01 ... -- CPU_WriteMem(256 bytes @ 0x30005814)  returns 0x100 (0004ms, 682707ms total)
T4670 67559:546 JLINK_WriteReg(R0, 0x01000000)  returns 0x00 (0000ms, 682708ms total)
T4670 67559:546 JLINK_WriteReg(R1, 0x00000018)  returns 0x00 (0000ms, 682708ms total)
T4670 67559:546 JLINK_WriteReg(R2, 0x30005814)  returns 0x00 (0000ms, 682708ms total)
T4670 67559:546 JLINK_WriteReg(R3, 0x00000000)  returns 0x00 (0000ms, 682708ms total)
T4670 67559:546 JLINK_WriteReg(R4, 0x00000000)  returns 0x00 (0000ms, 682708ms total)
T4670 67559:546 JLINK_WriteReg(R5, 0x00000000)  returns 0x00 (0000ms, 682708ms total)
T4670 67559:546 JLINK_WriteReg(R6, 0x00000000)  returns 0x00 (0001ms, 682709ms total)
T4670 67559:547 JLINK_WriteReg(R7, 0x00000000)  returns 0x00 (0000ms, 682709ms total)
T4670 67559:547 JLINK_WriteReg(R8, 0x00000000)  returns 0x00 (0000ms, 682709ms total)
T4670 67559:547 JLINK_WriteReg(R9, 0x30004200)  returns 0x00 (0000ms, 682709ms total)
T4670 67559:547 JLINK_WriteReg(R10, 0x00000000)  returns 0x00 (0000ms, 682709ms total)
T4670 67559:547 JLINK_WriteReg(R11, 0x00000000)  returns 0x00 (0000ms, 682709ms total)
T4670 67559:547 JLINK_WriteReg(R12, 0x00000000)  returns 0x00 (0000ms, 682709ms total)
T4670 67559:547 JLINK_WriteReg(R13 (SP), 0x3000F000)  returns 0x00 (0000ms, 682709ms total)
T4670 67559:547 JLINK_WriteReg(R14, 0x30000001)  returns 0x00 (0000ms, 682709ms total)
T4670 67559:547 JLINK_WriteReg(R15 (PC), 0x300007A4)  returns 0x00 (0000ms, 682709ms total)
T4670 67559:548 JLINK_WriteReg(XPSR, 0x01000000)  returns 0x00 (0000ms, 682710ms total)
T4670 67559:548 JLINK_WriteReg(MSP, 0x3000F000)  returns 0x00 (0000ms, 682710ms total)
T4670 67559:548 JLINK_WriteReg(PSP, 0x3000F000)  returns 0x00 (0000ms, 682710ms total)
T4670 67559:548 JLINK_WriteReg(CFBP, 0x00000000)  returns 0x00 (0000ms, 682710ms total)
T4670 67559:548 JLINK_SetBPEx(Addr = 0x30000000, Type = 0xFFFFFFF2)  returns 0x00000005 (0000ms, 682710ms total)
T4670 67559:548 JLINK_Go() -- CPU_ReadMem(4 bytes @ 0xE0001000) (0007ms, 682717ms total)
T4670 67559:556 JLINK_IsHalted()  returns FALSE (0001ms, 682718ms total)
T4670 67559:601 JLINK_IsHalted() -- CPU_ReadMem(2 bytes @ 0x30000000)  returns TRUE (0006ms, 682723ms total)
T4670 67559:607 JLINK_ReadReg(R15 (PC))  returns 0x30000000 (0000ms, 682717ms total)
T4670 67559:607 JLINK_ClrBPEx(BPHandle = 0x00000005)  returns 0x00 (0000ms, 682717ms total)
T4670 67559:607 JLINK_ReadReg(R0)  returns 0x00000000 (0000ms, 682717ms total)
T4670 67559:607 JLINK_WriteMem(0x30005814, 0x0100 Bytes, ...) - Data: 00 00 04 30 8D 2A 00 01 99 2A 00 01 9B 2A 00 01 ... -- CPU_WriteMem(256 bytes @ 0x30005814)  returns 0x100 (0005ms, 682722ms total)
T4670 67559:612 JLINK_WriteReg(R0, 0x01002000)  returns 0x00 (0000ms, 682722ms total)
T4670 67559:612 JLINK_WriteReg(R1, 0x00000100)  returns 0x00 (0000ms, 682722ms total)
T4670 67559:612 JLINK_WriteReg(R2, 0x30005814)  returns 0x00 (0000ms, 682722ms total)
T4670 67559:612 JLINK_WriteReg(R3, 0x00000000)  returns 0x00 (0000ms, 682722ms total)
T4670 67559:612 JLINK_WriteReg(R4, 0x00000000)  returns 0x00 (0000ms, 682722ms total)
T4670 67559:612 JLINK_WriteReg(R5, 0x00000000)  returns 0x00 (0000ms, 682722ms total)
T4670 67559:612 JLINK_WriteReg(R6, 0x00000000)  returns 0x00 (0000ms, 682722ms total)
T4670 67559:612 JLINK_WriteReg(R7, 0x00000000)  returns 0x00 (0000ms, 682722ms total)
T4670 67559:612 JLINK_WriteReg(R8, 0x00000000)  returns 0x00 (0000ms, 682722ms total)
T4670 67559:612 JLINK_WriteReg(R9, 0x30004200)  returns 0x00 (0000ms, 682722ms total)
T4670 67559:612 JLINK_WriteReg(R10, 0x00000000)  returns 0x00 (0000ms, 682722ms total)
T4670 67559:612 JLINK_WriteReg(R11, 0x00000000)  returns 0x00 (0000ms, 682722ms total)
T4670 67559:612 JLINK_WriteReg(R12, 0x00000000)  returns 0x00 (0000ms, 682722ms total)
T4670 67559:612 JLINK_WriteReg(R13 (SP), 0x3000F000)  returns 0x00 (0000ms, 682722ms total)
T4670 67559:612 JLINK_WriteReg(R14, 0x30000001)  returns 0x00 (0000ms, 682722ms total)
T4670 67559:612 JLINK_WriteReg(R15 (PC), 0x300007A4)  returns 0x00 (0000ms, 682722ms total)
T4670 67559:612 JLINK_WriteReg(XPSR, 0x01000000)  returns 0x00 (0000ms, 682722ms total)
T4670 67559:612 JLINK_WriteReg(MSP, 0x3000F000)  returns 0x00 (0000ms, 682722ms total)
T4670 67559:612 JLINK_WriteReg(PSP, 0x3000F000)  returns 0x00 (0000ms, 682722ms total)
T4670 67559:612 JLINK_WriteReg(CFBP, 0x00000000)  returns 0x00 (0000ms, 682722ms total)
T4670 67559:612 JLINK_SetBPEx(Addr = 0x30000000, Type = 0xFFFFFFF2)  returns 0x00000006 (0000ms, 682722ms total)
T4670 67559:612 JLINK_Go() -- CPU_ReadMem(4 bytes @ 0xE0001000) (0006ms, 682728ms total)
T4670 67559:618 JLINK_IsHalted()  returns FALSE (0001ms, 682729ms total)
T4670 67559:622 JLINK_IsHalted() -- CPU_ReadMem(2 bytes @ 0x30000000)  returns TRUE (0006ms, 682734ms total)
T4670 67559:628 JLINK_ReadReg(R15 (PC))  returns 0x30000000 (0000ms, 682728ms total)
T4670 67559:628 JLINK_ClrBPEx(BPHandle = 0x00000006)  returns 0x00 (0000ms, 682728ms total)
T4670 67559:628 JLINK_ReadReg(R0)  returns 0x00000000 (0000ms, 682728ms total)
T4670 67559:629 JLINK_WriteMem(0x30005814, 0x0100 Bytes, ...) - Data: 70 EB 04 00 0A 44 4F F0 00 0C 10 F8 01 3B 13 F0 ... -- CPU_WriteMem(256 bytes @ 0x30005814)  returns 0x100 (0004ms, 682732ms total)
T4670 67559:633 JLINK_WriteReg(R0, 0x01002100)  returns 0x00 (0000ms, 682732ms total)
T4670 67559:633 JLINK_WriteReg(R1, 0x00000100)  returns 0x00 (0000ms, 682732ms total)
T4670 67559:633 JLINK_WriteReg(R2, 0x30005814)  returns 0x00 (0000ms, 682732ms total)
T4670 67559:633 JLINK_WriteReg(R3, 0x00000000)  returns 0x00 (0000ms, 682732ms total)
T4670 67559:633 JLINK_WriteReg(R4, 0x00000000)  returns 0x00 (0000ms, 682732ms total)
T4670 67559:633 JLINK_WriteReg(R5, 0x00000000)  returns 0x00 (0000ms, 682732ms total)
T4670 67559:633 JLINK_WriteReg(R6, 0x00000000)  returns 0x00 (0000ms, 682732ms total)
T4670 67559:633 JLINK_WriteReg(R7, 0x00000000)  returns 0x00 (0000ms, 682732ms total)
T4670 67559:633 JLINK_WriteReg(R8, 0x00000000)  returns 0x00 (0000ms, 682732ms total)
T4670 67559:633 JLINK_WriteReg(R9, 0x30004200)  returns 0x00 (0000ms, 682732ms total)
T4670 67559:633 JLINK_WriteReg(R10, 0x00000000)  returns 0x00 (0000ms, 682732ms total)
T4670 67559:633 JLINK_WriteReg(R11, 0x00000000)  returns 0x00 (0000ms, 682732ms total)
T4670 67559:633 JLINK_WriteReg(R12, 0x00000000)  returns 0x00 (0000ms, 682732ms total)
T4670 67559:633 JLINK_WriteReg(R13 (SP), 0x3000F000)  returns 0x00 (0000ms, 682732ms total)
T4670 67559:633 JLINK_WriteReg(R14, 0x30000001)  returns 0x00 (0000ms, 682732ms total)
T4670 67559:633 JLINK_WriteReg(R15 (PC), 0x300007A4)  returns 0x00 (0000ms, 682732ms total)
T4670 67559:633 JLINK_WriteReg(XPSR, 0x01000000)  returns 0x00 (0000ms, 682732ms total)
T4670 67559:633 JLINK_WriteReg(MSP, 0x3000F000)  returns 0x00 (0000ms, 682732ms total)
T4670 67559:633 JLINK_WriteReg(PSP, 0x3000F000)  returns 0x00 (0000ms, 682732ms total)
T4670 67559:633 JLINK_WriteReg(CFBP, 0x00000000)  returns 0x00 (0000ms, 682732ms total)
T4670 67559:633 JLINK_SetBPEx(Addr = 0x30000000, Type = 0xFFFFFFF2)  returns 0x00000007 (0000ms, 682732ms total)
T4670 67559:633 JLINK_Go() -- CPU_ReadMem(4 bytes @ 0xE0001000) (0007ms, 682739ms total)
T4670 67559:640 JLINK_IsHalted()  returns FALSE (0001ms, 682740ms total)
T4670 67559:643 JLINK_IsHalted() -- CPU_ReadMem(2 bytes @ 0x30000000)  returns TRUE (0007ms, 682746ms total)
T4670 67559:650 JLINK_ReadReg(R15 (PC))  returns 0x30000000 (0000ms, 682739ms total)
T4670 67559:651 JLINK_ClrBPEx(BPHandle = 0x00000007)  returns 0x00 (0000ms, 682739ms total)
T4670 67559:651 JLINK_ReadReg(R0)  returns 0x00000000 (0000ms, 682739ms total)
T4670 67559:652 JLINK_WriteMem(0x30005814, 0x0100 Bytes, ...) - Data: 8C 86 03 68 DB 09 28 BF 41 F0 80 01 63 29 01 F0 ... -- CPU_WriteMem(256 bytes @ 0x30005814)  returns 0x100 (0004ms, 682743ms total)
T4670 67559:656 JLINK_WriteReg(R0, 0x01002200)  returns 0x00 (0001ms, 682744ms total)
T4670 67559:657 JLINK_WriteReg(R1, 0x00000100)  returns 0x00 (0000ms, 682744ms total)
T4670 67559:657 JLINK_WriteReg(R2, 0x30005814)  returns 0x00 (0000ms, 682744ms total)
T4670 67559:657 JLINK_WriteReg(R3, 0x00000000)  returns 0x00 (0000ms, 682744ms total)
T4670 67559:657 JLINK_WriteReg(R4, 0x00000000)  returns 0x00 (0000ms, 682744ms total)
T4670 67559:657 JLINK_WriteReg(R5, 0x00000000)  returns 0x00 (0000ms, 682744ms total)
T4670 67559:657 JLINK_WriteReg(R6, 0x00000000)  returns 0x00 (0000ms, 682744ms total)
T4670 67559:657 JLINK_WriteReg(R7, 0x00000000)  returns 0x00 (0000ms, 682744ms total)
T4670 67559:657 JLINK_WriteReg(R8, 0x00000000)  returns 0x00 (0000ms, 682744ms total)
T4670 67559:657 JLINK_WriteReg(R9, 0x30004200)  returns 0x00 (0000ms, 682744ms total)
T4670 67559:657 JLINK_WriteReg(R10, 0x00000000)  returns 0x00 (0000ms, 682744ms total)
T4670 67559:657 JLINK_WriteReg(R11, 0x00000000)  returns 0x00 (0000ms, 682744ms total)
T4670 67559:657 JLINK_WriteReg(R12, 0x00000000)  returns 0x00 (0001ms, 682745ms total)
T4670 67559:658 JLINK_WriteReg(R13 (SP), 0x3000F000)  returns 0x00 (0000ms, 682745ms total)
T4670 67559:658 JLINK_WriteReg(R14, 0x30000001)  returns 0x00 (0000ms, 682745ms total)
T4670 67559:658 JLINK_WriteReg(R15 (PC), 0x300007A4)  returns 0x00 (0000ms, 682745ms total)
T4670 67559:658 JLINK_WriteReg(XPSR, 0x01000000)  returns 0x00 (0000ms, 682745ms total)
T4670 67559:658 JLINK_WriteReg(MSP, 0x3000F000)  returns 0x00 (0000ms, 682745ms total)
T4670 67559:658 JLINK_WriteReg(PSP, 0x3000F000)  returns 0x00 (0000ms, 682745ms total)
T4670 67559:658 JLINK_WriteReg(CFBP, 0x00000000)  returns 0x00 (0000ms, 682745ms total)
T4670 67559:658 JLINK_SetBPEx(Addr = 0x30000000, Type = 0xFFFFFFF2)  returns 0x00000008 (0000ms, 682745ms total)
T4670 67559:658 JLINK_Go() -- CPU_ReadMem(4 bytes @ 0xE0001000) (0008ms, 682753ms total)
T4670 67559:666 JLINK_IsHalted()  returns FALSE (0001ms, 682754ms total)
T4670 67559:669 JLINK_IsHalted() -- CPU_ReadMem(2 bytes @ 0x30000000)  returns TRUE (0008ms, 682761ms total)
T4670 67559:677 JLINK_ReadReg(R15 (PC))  returns 0x30000000 (0000ms, 682753ms total)
T4670 67559:677 JLINK_ClrBPEx(BPHandle = 0x00000008)  returns 0x00 (0000ms, 682753ms total)
T4670 67559:677 JLINK_ReadReg(R0)  returns 0x00000000 (0000ms, 682753ms total)
T4670 67559:679 JLINK_WriteMem(0x30005814, 0x0100 Bytes, ...) - Data: 30 00 80 F3 11 88 BF F3 4F 8F BF F3 6F 8F 46 F0 ... -- CPU_WriteMem(256 bytes @ 0x30005814)  returns 0x100 (0004ms, 682757ms total)
T4670 67559:684 JLINK_WriteReg(R0, 0x01002300)  returns 0x00 (0000ms, 682757ms total)
T4670 67559:684 JLINK_WriteReg(R1, 0x00000100)  returns 0x00 (0000ms, 682757ms total)
T4670 67559:684 JLINK_WriteReg(R2, 0x30005814)  returns 0x00 (0000ms, 682757ms total)
T4670 67559:684 JLINK_WriteReg(R3, 0x00000000)  returns 0x00 (0000ms, 682757ms total)
T4670 67559:684 JLINK_WriteReg(R4, 0x00000000)  returns 0x00 (0000ms, 682757ms total)
T4670 67559:684 JLINK_WriteReg(R5, 0x00000000)  returns 0x00 (0000ms, 682757ms total)
T4670 67559:684 JLINK_WriteReg(R6, 0x00000000)  returns 0x00 (0000ms, 682757ms total)
T4670 67559:684 JLINK_WriteReg(R7, 0x00000000)  returns 0x00 (0000ms, 682757ms total)
T4670 67559:684 JLINK_WriteReg(R8, 0x00000000)  returns 0x00 (0000ms, 682757ms total)
T4670 67559:684 JLINK_WriteReg(R9, 0x30004200)  returns 0x00 (0000ms, 682757ms total)
T4670 67559:684 JLINK_WriteReg(R10, 0x00000000)  returns 0x00 (0000ms, 682757ms total)
T4670 67559:684 JLINK_WriteReg(R11, 0x00000000)  returns 0x00 (0000ms, 682757ms total)
T4670 67559:684 JLINK_WriteReg(R12, 0x00000000)  returns 0x00 (0000ms, 682757ms total)
T4670 67559:684 JLINK_WriteReg(R13 (SP), 0x3000F000)  returns 0x00 (0000ms, 682757ms total)
T4670 67559:684 JLINK_WriteReg(R14, 0x30000001)  returns 0x00 (0000ms, 682757ms total)
T4670 67559:684 JLINK_WriteReg(R15 (PC), 0x300007A4)  returns 0x00 (0000ms, 682757ms total)
T4670 67559:684 JLINK_WriteReg(XPSR, 0x01000000)  returns 0x00 (0000ms, 682757ms total)
T4670 67559:684 JLINK_WriteReg(MSP, 0x3000F000)  returns 0x00 (0000ms, 682757ms total)
T4670 67559:685 JLINK_WriteReg(PSP, 0x3000F000)  returns 0x00 (0000ms, 682757ms total)
T4670 67559:685 JLINK_WriteReg(CFBP, 0x00000000)  returns 0x00 (0000ms, 682757ms total)
T4670 67559:685 JLINK_SetBPEx(Addr = 0x30000000, Type = 0xFFFFFFF2)  returns 0x00000009 (0000ms, 682757ms total)
T4670 67559:685 JLINK_Go() -- CPU_ReadMem(4 bytes @ 0xE0001000) (0007ms, 682764ms total)
T4670 67559:692 JLINK_IsHalted()  returns FALSE (0001ms, 682765ms total)
T4670 67559:701 JLINK_IsHalted() -- CPU_ReadMem(2 bytes @ 0x30000000)  returns TRUE (0007ms, 682771ms total)
T4670 67559:708 JLINK_ReadReg(R15 (PC))  returns 0x30000000 (0000ms, 682764ms total)
T4670 67559:708 JLINK_ClrBPEx(BPHandle = 0x00000009)  returns 0x00 (0000ms, 682764ms total)
T4670 67559:708 JLINK_ReadReg(R0)  returns 0x00000000 (0001ms, 682765ms total)
T4670 67559:710 JLINK_WriteMem(0x30005814, 0x0100 Bytes, ...) - Data: A1 F1 DC 0C 8A 42 28 BF A1 F1 DC 02 C1 F8 00 C0 ... -- CPU_WriteMem(256 bytes @ 0x30005814)  returns 0x100 (0004ms, 682769ms total)
T4670 67559:715 JLINK_WriteReg(R0, 0x01002400)  returns 0x00 (0000ms, 682769ms total)
T4670 67559:715 JLINK_WriteReg(R1, 0x00000100)  returns 0x00 (0000ms, 682769ms total)
T4670 67559:715 JLINK_WriteReg(R2, 0x30005814)  returns 0x00 (0000ms, 682769ms total)
T4670 67559:715 JLINK_WriteReg(R3, 0x00000000)  returns 0x00 (0000ms, 682769ms total)
T4670 67559:715 JLINK_WriteReg(R4, 0x00000000)  returns 0x00 (0000ms, 682769ms total)
T4670 67559:715 JLINK_WriteReg(R5, 0x00000000)  returns 0x00 (0000ms, 682769ms total)
T4670 67559:715 JLINK_WriteReg(R6, 0x00000000)  returns 0x00 (0000ms, 682769ms total)
T4670 67559:715 JLINK_WriteReg(R7, 0x00000000)  returns 0x00 (0000ms, 682769ms total)
T4670 67559:715 JLINK_WriteReg(R8, 0x00000000)  returns 0x00 (0000ms, 682769ms total)
T4670 67559:715 JLINK_WriteReg(R9, 0x30004200)  returns 0x00 (0000ms, 682769ms total)
T4670 67559:715 JLINK_WriteReg(R10, 0x00000000)  returns 0x00 (0000ms, 682769ms total)
T4670 67559:715 JLINK_WriteReg(R11, 0x00000000)  returns 0x00 (0000ms, 682769ms total)
T4670 67559:715 JLINK_WriteReg(R12, 0x00000000)  returns 0x00 (0000ms, 682769ms total)
T4670 67559:715 JLINK_WriteReg(R13 (SP), 0x3000F000)  returns 0x00 (0001ms, 682770ms total)
T4670 67559:716 JLINK_WriteReg(R14, 0x30000001)  returns 0x00 (0000ms, 682770ms total)
T4670 67559:716 JLINK_WriteReg(R15 (PC), 0x300007A4)  returns 0x00 (0000ms, 682770ms total)
T4670 67559:716 JLINK_WriteReg(XPSR, 0x01000000)  returns 0x00 (0000ms, 682770ms total)
T4670 67559:716 JLINK_WriteReg(MSP, 0x3000F000)  returns 0x00 (0000ms, 682770ms total)
T4670 67559:716 JLINK_WriteReg(PSP, 0x3000F000)  returns 0x00 (0000ms, 682770ms total)
T4670 67559:716 JLINK_WriteReg(CFBP, 0x00000000)  returns 0x00 (0000ms, 682770ms total)
T4670 67559:716 JLINK_SetBPEx(Addr = 0x30000000, Type = 0xFFFFFFF2)  returns 0x0000000A (0000ms, 682770ms total)
T4670 67559:716 JLINK_Go() -- CPU_ReadMem(4 bytes @ 0xE0001000) (0007ms, 682777ms total)
T4670 67559:723 JLINK_IsHalted()  returns FALSE (0001ms, 682778ms total)
T4670 67559:726 JLINK_IsHalted() -- CPU_ReadMem(2 bytes @ 0x30000000)  returns TRUE (0008ms, 682785ms total)
T4670 67559:734 JLINK_ReadReg(R15 (PC))  returns 0x30000000 (0000ms, 682777ms total)
T4670 67559:734 JLINK_ClrBPEx(BPHandle = 0x0000000A)  returns 0x00 (0000ms, 682777ms total)
T4670 67559:734 JLINK_ReadReg(R0)  returns 0x00000000 (0000ms, 682777ms total)
T4670 67559:735 JLINK_WriteMem(0x30005814, 0x0100 Bytes, ...) - Data: 40 BA 70 47 40 BA 70 47 40 BA 70 47 40 BA 70 47 ... -- CPU_WriteMem(256 bytes @ 0x30005814)  returns 0x100 (0005ms, 682782ms total)
T4670 67559:740 JLINK_WriteReg(R0, 0x01002500)  returns 0x00 (0000ms, 682782ms total)
T4670 67559:740 JLINK_WriteReg(R1, 0x00000100)  returns 0x00 (0000ms, 682782ms total)
T4670 67559:740 JLINK_WriteReg(R2, 0x30005814)  returns 0x00 (0000ms, 682782ms total)
T4670 67559:740 JLINK_WriteReg(R3, 0x00000000)  returns 0x00 (0000ms, 682782ms total)
T4670 67559:740 JLINK_WriteReg(R4, 0x00000000)  returns 0x00 (0000ms, 682782ms total)
T4670 67559:740 JLINK_WriteReg(R5, 0x00000000)  returns 0x00 (0000ms, 682782ms total)
T4670 67559:740 JLINK_WriteReg(R6, 0x00000000)  returns 0x00 (0000ms, 682782ms total)
T4670 67559:740 JLINK_WriteReg(R7, 0x00000000)  returns 0x00 (0000ms, 682782ms total)
T4670 67559:740 JLINK_WriteReg(R8, 0x00000000)  returns 0x00 (0000ms, 682782ms total)
T4670 67559:740 JLINK_WriteReg(R9, 0x30004200)  returns 0x00 (0000ms, 682782ms total)
T4670 67559:740 JLINK_WriteReg(R10, 0x00000000)  returns 0x00 (0001ms, 682783ms total)
T4670 67559:741 JLINK_WriteReg(R11, 0x00000000)  returns 0x00 (0000ms, 682783ms total)
T4670 67559:741 JLINK_WriteReg(R12, 0x00000000)  returns 0x00 (0000ms, 682783ms total)
T4670 67559:741 JLINK_WriteReg(R13 (SP), 0x3000F000)  returns 0x00 (0000ms, 682783ms total)
T4670 67559:741 JLINK_WriteReg(R14, 0x30000001)  returns 0x00 (0000ms, 682783ms total)
T4670 67559:741 JLINK_WriteReg(R15 (PC), 0x300007A4)  returns 0x00 (0000ms, 682783ms total)
T4670 67559:741 JLINK_WriteReg(XPSR, 0x01000000)  returns 0x00 (0000ms, 682783ms total)
T4670 67559:741 JLINK_WriteReg(MSP, 0x3000F000)  returns 0x00 (0000ms, 682783ms total)
T4670 67559:741 JLINK_WriteReg(PSP, 0x3000F000)  returns 0x00 (0000ms, 682783ms total)
T4670 67559:741 JLINK_WriteReg(CFBP, 0x00000000)  returns 0x00 (0000ms, 682783ms total)
T4670 67559:741 JLINK_SetBPEx(Addr = 0x30000000, Type = 0xFFFFFFF2)  returns 0x0000000B (0000ms, 682783ms total)
T4670 67559:741 JLINK_Go() -- CPU_ReadMem(4 bytes @ 0xE0001000) (0007ms, 682790ms total)
T4670 67559:748 JLINK_IsHalted()  returns FALSE (0001ms, 682791ms total)
T4670 67559:751 JLINK_IsHalted() -- CPU_ReadMem(2 bytes @ 0x30000000)  returns TRUE (0007ms, 682797ms total)
T4670 67559:759 JLINK_ReadReg(R15 (PC))  returns 0x30000000 (0000ms, 682790ms total)
T4670 67559:759 JLINK_ClrBPEx(BPHandle = 0x0000000B)  returns 0x00 (0000ms, 682790ms total)
T4670 67559:759 JLINK_ReadReg(R0)  returns 0x00000000 (0000ms, 682790ms total)
T4670 67559:760 JLINK_WriteMem(0x30005814, 0x0100 Bytes, ...) - Data: C0 BA 70 47 C0 BA 70 47 C0 BA 70 47 C0 BA 70 47 ... -- CPU_WriteMem(256 bytes @ 0x30005814)  returns 0x100 (0004ms, 682794ms total)
T4670 67559:764 JLINK_WriteReg(R0, 0x01002600)  returns 0x00 (0000ms, 682794ms total)
T4670 67559:764 JLINK_WriteReg(R1, 0x00000100)  returns 0x00 (0000ms, 682794ms total)
T4670 67559:764 JLINK_WriteReg(R2, 0x30005814)  returns 0x00 (0000ms, 682794ms total)
T4670 67559:765 JLINK_WriteReg(R3, 0x00000000)  returns 0x00 (0000ms, 682795ms total)
T4670 67559:765 JLINK_WriteReg(R4, 0x00000000)  returns 0x00 (0000ms, 682795ms total)
T4670 67559:765 JLINK_WriteReg(R5, 0x00000000)  returns 0x00 (0000ms, 682795ms total)
T4670 67559:765 JLINK_WriteReg(R6, 0x00000000)  returns 0x00 (0000ms, 682795ms total)
T4670 67559:765 JLINK_WriteReg(R7, 0x00000000)  returns 0x00 (0000ms, 682795ms total)
T4670 67559:765 JLINK_WriteReg(R8, 0x00000000)  returns 0x00 (0000ms, 682795ms total)
T4670 67559:765 JLINK_WriteReg(R9, 0x30004200)  returns 0x00 (0000ms, 682795ms total)
T4670 67559:765 JLINK_WriteReg(R10, 0x00000000)  returns 0x00 (0000ms, 682795ms total)
T4670 67559:765 JLINK_WriteReg(R11, 0x00000000)  returns 0x00 (0000ms, 682795ms total)
T4670 67559:765 JLINK_WriteReg(R12, 0x00000000)  returns 0x00 (0000ms, 682795ms total)
T4670 67559:765 JLINK_WriteReg(R13 (SP), 0x3000F000)  returns 0x00 (0000ms, 682795ms total)
T4670 67559:765 JLINK_WriteReg(R14, 0x30000001)  returns 0x00 (0000ms, 682795ms total)
T4670 67559:765 JLINK_WriteReg(R15 (PC), 0x300007A4)  returns 0x00 (0000ms, 682795ms total)
T4670 67559:765 JLINK_WriteReg(XPSR, 0x01000000)  returns 0x00 (0000ms, 682795ms total)
T4670 67559:765 JLINK_WriteReg(MSP, 0x3000F000)  returns 0x00 (0000ms, 682795ms total)
T4670 67559:765 JLINK_WriteReg(PSP, 0x3000F000)  returns 0x00 (0000ms, 682795ms total)
T4670 67559:765 JLINK_WriteReg(CFBP, 0x00000000)  returns 0x00 (0000ms, 682795ms total)
T4670 67559:765 JLINK_SetBPEx(Addr = 0x30000000, Type = 0xFFFFFFF2)  returns 0x0000000C (0001ms, 682796ms total)
T4670 67559:766 JLINK_Go() -- CPU_ReadMem(4 bytes @ 0xE0001000) (0006ms, 682802ms total)
T4670 67559:773 JLINK_IsHalted()  returns FALSE (0000ms, 682803ms total)
T4670 67559:775 JLINK_IsHalted() -- CPU_ReadMem(2 bytes @ 0x30000000)  returns TRUE (0007ms, 682810ms total)
T4670 67559:782 JLINK_ReadReg(R15 (PC))  returns 0x30000000 (0000ms, 682803ms total)
T4670 67559:782 JLINK_ClrBPEx(BPHandle = 0x0000000C)  returns 0x00 (0000ms, 682803ms total)
T4670 67559:782 JLINK_ReadReg(R0)  returns 0x00000000 (0000ms, 682803ms total)
T4670 67559:784 JLINK_WriteMem(0x30005814, 0x0100 Bytes, ...) - Data: C0 BA 70 47 C0 BA 70 47 C0 BA 70 47 C0 BA 70 47 ... -- CPU_WriteMem(256 bytes @ 0x30005814)  returns 0x100 (0004ms, 682807ms total)
T4670 67559:788 JLINK_WriteReg(R0, 0x01002700)  returns 0x00 (0000ms, 682807ms total)
T4670 67559:788 JLINK_WriteReg(R1, 0x00000100)  returns 0x00 (0000ms, 682807ms total)
T4670 67559:788 JLINK_WriteReg(R2, 0x30005814)  returns 0x00 (0000ms, 682807ms total)
T4670 67559:788 JLINK_WriteReg(R3, 0x00000000)  returns 0x00 (0000ms, 682807ms total)
T4670 67559:788 JLINK_WriteReg(R4, 0x00000000)  returns 0x00 (0000ms, 682807ms total)
T4670 67559:788 JLINK_WriteReg(R5, 0x00000000)  returns 0x00 (0000ms, 682807ms total)
T4670 67559:788 JLINK_WriteReg(R6, 0x00000000)  returns 0x00 (0000ms, 682807ms total)
T4670 67559:789 JLINK_WriteReg(R7, 0x00000000)  returns 0x00 (0000ms, 682808ms total)
T4670 67559:789 JLINK_WriteReg(R8, 0x00000000)  returns 0x00 (0000ms, 682808ms total)
T4670 67559:789 JLINK_WriteReg(R9, 0x30004200)  returns 0x00 (0000ms, 682808ms total)
T4670 67559:789 JLINK_WriteReg(R10, 0x00000000)  returns 0x00 (0000ms, 682808ms total)
T4670 67559:789 JLINK_WriteReg(R11, 0x00000000)  returns 0x00 (0000ms, 682808ms total)
T4670 67559:789 JLINK_WriteReg(R12, 0x00000000)  returns 0x00 (0000ms, 682808ms total)
T4670 67559:789 JLINK_WriteReg(R13 (SP), 0x3000F000)  returns 0x00 (0000ms, 682808ms total)
T4670 67559:789 JLINK_WriteReg(R14, 0x30000001)  returns 0x00 (0000ms, 682808ms total)
T4670 67559:789 JLINK_WriteReg(R15 (PC), 0x300007A4)  returns 0x00 (0000ms, 682808ms total)
T4670 67559:789 JLINK_WriteReg(XPSR, 0x01000000)  returns 0x00 (0000ms, 682808ms total)
T4670 67559:789 JLINK_WriteReg(MSP, 0x3000F000)  returns 0x00 (0000ms, 682808ms total)
T4670 67559:789 JLINK_WriteReg(PSP, 0x3000F000)  returns 0x00 (0000ms, 682808ms total)
T4670 67559:789 JLINK_WriteReg(CFBP, 0x00000000)  returns 0x00 (0000ms, 682808ms total)
T4670 67559:789 JLINK_SetBPEx(Addr = 0x30000000, Type = 0xFFFFFFF2)  returns 0x0000000D (0000ms, 682808ms total)
T4670 67559:789 JLINK_Go() -- CPU_ReadMem(4 bytes @ 0xE0001000) (0007ms, 682815ms total)
T4670 67559:796 JLINK_IsHalted()  returns FALSE (0001ms, 682816ms total)
T4670 67559:804 JLINK_IsHalted() -- CPU_ReadMem(2 bytes @ 0x30000000)  returns TRUE (0008ms, 682823ms total)
T4670 67559:812 JLINK_ReadReg(R15 (PC))  returns 0x30000000 (0000ms, 682815ms total)
T4670 67559:812 JLINK_ClrBPEx(BPHandle = 0x0000000D)  returns 0x00 (0000ms, 682815ms total)
T4670 67559:812 JLINK_ReadReg(R0)  returns 0x00000000 (0000ms, 682815ms total)
T4670 67559:814 JLINK_WriteMem(0x30005814, 0x0100 Bytes, ...) - Data: 70 47 00 00 4F EA 30 00 70 47 00 00 4F EA 30 00 ... -- CPU_WriteMem(256 bytes @ 0x30005814)  returns 0x100 (0004ms, 682819ms total)
T4670 67559:818 JLINK_WriteReg(R0, 0x01002800)  returns 0x00 (0000ms, 682819ms total)
T4670 67559:818 JLINK_WriteReg(R1, 0x00000100)  returns 0x00 (0000ms, 682819ms total)
T4670 67559:818 JLINK_WriteReg(R2, 0x30005814)  returns 0x00 (0000ms, 682819ms total)
T4670 67559:818 JLINK_WriteReg(R3, 0x00000000)  returns 0x00 (0000ms, 682819ms total)
T4670 67559:818 JLINK_WriteReg(R4, 0x00000000)  returns 0x00 (0000ms, 682819ms total)
T4670 67559:818 JLINK_WriteReg(R5, 0x00000000)  returns 0x00 (0000ms, 682819ms total)
T4670 67559:818 JLINK_WriteReg(R6, 0x00000000)  returns 0x00 (0001ms, 682820ms total)
T4670 67559:819 JLINK_WriteReg(R7, 0x00000000)  returns 0x00 (0000ms, 682820ms total)
T4670 67559:819 JLINK_WriteReg(R8, 0x00000000)  returns 0x00 (0000ms, 682820ms total)
T4670 67559:819 JLINK_WriteReg(R9, 0x30004200)  returns 0x00 (0000ms, 682820ms total)
T4670 67559:819 JLINK_WriteReg(R10, 0x00000000)  returns 0x00 (0000ms, 682820ms total)
T4670 67559:819 JLINK_WriteReg(R11, 0x00000000)  returns 0x00 (0000ms, 682820ms total)
T4670 67559:819 JLINK_WriteReg(R12, 0x00000000)  returns 0x00 (0000ms, 682820ms total)
T4670 67559:819 JLINK_WriteReg(R13 (SP), 0x3000F000)  returns 0x00 (0000ms, 682820ms total)
T4670 67559:819 JLINK_WriteReg(R14, 0x30000001)  returns 0x00 (0000ms, 682820ms total)
T4670 67559:819 JLINK_WriteReg(R15 (PC), 0x300007A4)  returns 0x00 (0000ms, 682820ms total)
T4670 67559:819 JLINK_WriteReg(XPSR, 0x01000000)  returns 0x00 (0000ms, 682820ms total)
T4670 67559:819 JLINK_WriteReg(MSP, 0x3000F000)  returns 0x00 (0000ms, 682820ms total)
T4670 67559:819 JLINK_WriteReg(PSP, 0x3000F000)  returns 0x00 (0000ms, 682820ms total)
T4670 67559:819 JLINK_WriteReg(CFBP, 0x00000000)  returns 0x00 (0000ms, 682820ms total)
T4670 67559:819 JLINK_SetBPEx(Addr = 0x30000000, Type = 0xFFFFFFF2)  returns 0x0000000E (0000ms, 682820ms total)
T4670 67559:819 JLINK_Go() -- CPU_ReadMem(4 bytes @ 0xE0001000) (0008ms, 682828ms total)
T4670 67559:827 JLINK_IsHalted()  returns FALSE (0001ms, 682829ms total)
T4670 67559:830 JLINK_IsHalted() -- CPU_ReadMem(2 bytes @ 0x30000000)  returns TRUE (0007ms, 682835ms total)
T4670 67559:837 JLINK_ReadReg(R15 (PC))  returns 0x30000000 (0000ms, 682828ms total)
T4670 67559:838 JLINK_ClrBPEx(BPHandle = 0x0000000E)  returns 0x00 (0000ms, 682828ms total)
T4670 67559:838 JLINK_ReadReg(R0)  returns 0x00000000 (0000ms, 682828ms total)
T4670 67559:839 JLINK_WriteMem(0x30005814, 0x0100 Bytes, ...) - Data: 70 47 00 00 4F EA 30 00 70 47 00 00 4F EA 30 00 ... -- CPU_WriteMem(256 bytes @ 0x30005814)  returns 0x100 (0004ms, 682832ms total)
T4670 67559:844 JLINK_WriteReg(R0, 0x01002900)  returns 0x00 (0000ms, 682832ms total)
T4670 67559:844 JLINK_WriteReg(R1, 0x00000100)  returns 0x00 (0000ms, 682832ms total)
T4670 67559:844 JLINK_WriteReg(R2, 0x30005814)  returns 0x00 (0000ms, 682832ms total)
T4670 67559:844 JLINK_WriteReg(R3, 0x00000000)  returns 0x00 (0000ms, 682832ms total)
T4670 67559:844 JLINK_WriteReg(R4, 0x00000000)  returns 0x00 (0000ms, 682832ms total)
T4670 67559:844 JLINK_WriteReg(R5, 0x00000000)  returns 0x00 (0000ms, 682832ms total)
T4670 67559:844 JLINK_WriteReg(R6, 0x00000000)  returns 0x00 (0000ms, 682832ms total)
T4670 67559:844 JLINK_WriteReg(R7, 0x00000000)  returns 0x00 (0000ms, 682832ms total)
T4670 67559:844 JLINK_WriteReg(R8, 0x00000000)  returns 0x00 (0000ms, 682832ms total)
T4670 67559:844 JLINK_WriteReg(R9, 0x30004200)  returns 0x00 (0000ms, 682832ms total)
T4670 67559:844 JLINK_WriteReg(R10, 0x00000000)  returns 0x00 (0000ms, 682832ms total)
T4670 67559:844 JLINK_WriteReg(R11, 0x00000000)  returns 0x00 (0000ms, 682832ms total)
T4670 67559:844 JLINK_WriteReg(R12, 0x00000000)  returns 0x00 (0000ms, 682832ms total)
T4670 67559:844 JLINK_WriteReg(R13 (SP), 0x3000F000)  returns 0x00 (0000ms, 682832ms total)
T4670 67559:844 JLINK_WriteReg(R14, 0x30000001)  returns 0x00 (0000ms, 682832ms total)
T4670 67559:845 JLINK_WriteReg(R15 (PC), 0x300007A4)  returns 0x00 (0000ms, 682832ms total)
T4670 67559:845 JLINK_WriteReg(XPSR, 0x01000000)  returns 0x00 (0000ms, 682832ms total)
T4670 67559:845 JLINK_WriteReg(MSP, 0x3000F000)  returns 0x00 (0000ms, 682832ms total)
T4670 67559:845 JLINK_WriteReg(PSP, 0x3000F000)  returns 0x00 (0000ms, 682832ms total)
T4670 67559:845 JLINK_WriteReg(CFBP, 0x00000000)  returns 0x00 (0000ms, 682832ms total)
T4670 67559:845 JLINK_SetBPEx(Addr = 0x30000000, Type = 0xFFFFFFF2)  returns 0x0000000F (0000ms, 682832ms total)
T4670 67559:845 JLINK_Go() -- CPU_ReadMem(4 bytes @ 0xE0001000) (0007ms, 682839ms total)
T4670 67559:852 JLINK_IsHalted()  returns FALSE (0001ms, 682840ms total)
T4670 67559:855 JLINK_IsHalted() -- CPU_ReadMem(2 bytes @ 0x30000000)  returns TRUE (0008ms, 682847ms total)
T4670 67559:863 JLINK_ReadReg(R15 (PC))  returns 0x30000000 (0000ms, 682839ms total)
T4670 67559:863 JLINK_ClrBPEx(BPHandle = 0x0000000F)  returns 0x00 (0000ms, 682839ms total)
T4670 67559:863 JLINK_ReadReg(R0)  returns 0x00000000 (0000ms, 682839ms total)
T4670 67559:865 JLINK_WriteMem(0x30005814, 0x0100 Bytes, ...) - Data: 70 47 00 00 4F EA 30 00 70 47 00 00 4F EA 30 00 ... -- CPU_WriteMem(256 bytes @ 0x30005814)  returns 0x100 (0004ms, 682843ms total)
T4670 67559:869 JLINK_WriteReg(R0, 0x01002A00)  returns 0x00 (0000ms, 682843ms total)
T4670 67559:869 JLINK_WriteReg(R1, 0x00000100)  returns 0x00 (0000ms, 682843ms total)
T4670 67559:869 JLINK_WriteReg(R2, 0x30005814)  returns 0x00 (0000ms, 682843ms total)
T4670 67559:869 JLINK_WriteReg(R3, 0x00000000)  returns 0x00 (0000ms, 682843ms total)
T4670 67559:869 JLINK_WriteReg(R4, 0x00000000)  returns 0x00 (0000ms, 682843ms total)
T4670 67559:869 JLINK_WriteReg(R5, 0x00000000)  returns 0x00 (0000ms, 682843ms total)
T4670 67559:869 JLINK_WriteReg(R6, 0x00000000)  returns 0x00 (0000ms, 682843ms total)
T4670 67559:869 JLINK_WriteReg(R7, 0x00000000)  returns 0x00 (0000ms, 682843ms total)
T4670 67559:869 JLINK_WriteReg(R8, 0x00000000)  returns 0x00 (0000ms, 682843ms total)
T4670 67559:869 JLINK_WriteReg(R9, 0x30004200)  returns 0x00 (0000ms, 682843ms total)
T4670 67559:869 JLINK_WriteReg(R10, 0x00000000)  returns 0x00 (0000ms, 682843ms total)
T4670 67559:869 JLINK_WriteReg(R11, 0x00000000)  returns 0x00 (0001ms, 682844ms total)
T4670 67559:870 JLINK_WriteReg(R12, 0x00000000)  returns 0x00 (0000ms, 682844ms total)
T4670 67559:870 JLINK_WriteReg(R13 (SP), 0x3000F000)  returns 0x00 (0000ms, 682844ms total)
T4670 67559:870 JLINK_WriteReg(R14, 0x30000001)  returns 0x00 (0000ms, 682844ms total)
T4670 67559:870 JLINK_WriteReg(R15 (PC), 0x300007A4)  returns 0x00 (0000ms, 682844ms total)
T4670 67559:870 JLINK_WriteReg(XPSR, 0x01000000)  returns 0x00 (0000ms, 682844ms total)
T4670 67559:870 JLINK_WriteReg(MSP, 0x3000F000)  returns 0x00 (0000ms, 682844ms total)
T4670 67559:870 JLINK_WriteReg(PSP, 0x3000F000)  returns 0x00 (0000ms, 682844ms total)
T4670 67559:870 JLINK_WriteReg(CFBP, 0x00000000)  returns 0x00 (0000ms, 682844ms total)
T4670 67559:870 JLINK_SetBPEx(Addr = 0x30000000, Type = 0xFFFFFFF2)  returns 0x00000010 (0000ms, 682844ms total)
T4670 67559:870 JLINK_Go() -- CPU_ReadMem(4 bytes @ 0xE0001000) (0008ms, 682852ms total)
T4670 67559:878 JLINK_IsHalted()  returns FALSE (0001ms, 682853ms total)
